Title: **.subckt char_schem g1v8 d1v8 b
Date: Sun Aug  1 21:39:37  2021
Plotname: DC transfer characteristic
Flags: real
No. Variables: 48
No. Points: 181
Variables:
	0	v-sweep	voltage
	1		voltage
	2	@include[current]	capacitance
	3	i(@m.xm1.msky130_fd_pr__nfet_01v8_lvt[ib])	current dims=0
	4	i(@m.xm1.msky130_fd_pr__nfet_01v8_lvt[id])	current
	5	i(@m.xm1.msky130_fd_pr__nfet_01v8_lvt[ig])	current dims=0
	6	i(@m.xm1.msky130_fd_pr__nfet_01v8_lvt[is])	current dims=0
	7	i(@m.xm2.msky130_fd_pr__nfet_01v8[ib])	current dims=0
	8	i(@m.xm2.msky130_fd_pr__nfet_01v8[id])	current
	9	i(@m.xm2.msky130_fd_pr__nfet_01v8[ig])	current dims=0
	10	i(@m.xm2.msky130_fd_pr__nfet_01v8[is])	current dims=0
	11	i(@m.xm3.msky130_fd_pr__nfet_01v8_lvt[ib])	current dims=0
	12	i(@m.xm3.msky130_fd_pr__nfet_01v8_lvt[id])	current
	13	i(@m.xm3.msky130_fd_pr__nfet_01v8_lvt[ig])	current dims=0
	14	i(@m.xm3.msky130_fd_pr__nfet_01v8_lvt[is])	current dims=0
	15	i(@m.xm4.msky130_fd_pr__nfet_01v8[ib])	current dims=0
	16	i(@m.xm4.msky130_fd_pr__nfet_01v8[id])	current
	17	i(@m.xm4.msky130_fd_pr__nfet_01v8[ig])	current dims=0
	18	i(@m.xm4.msky130_fd_pr__nfet_01v8[is])	current dims=0
	19	b	voltage
	20	d1v8	voltage
	21	g1v8	voltage
	22	m.xm1.msky130_fd_pr__nfet_01v8_lvt#body	voltage
	23	m.xm1.msky130_fd_pr__nfet_01v8_lvt#dbody	voltage
	24	m.xm1.msky130_fd_pr__nfet_01v8_lvt#sbody	voltage
	25	m.xm2.msky130_fd_pr__nfet_01v8#body	voltage
	26	m.xm2.msky130_fd_pr__nfet_01v8#dbody	voltage
	27	m.xm2.msky130_fd_pr__nfet_01v8#sbody	voltage
	28	m.xm3.msky130_fd_pr__nfet_01v8_lvt#body	voltage
	29	m.xm3.msky130_fd_pr__nfet_01v8_lvt#dbody	voltage
	30	m.xm3.msky130_fd_pr__nfet_01v8_lvt#sbody	voltage
	31	m.xm4.msky130_fd_pr__nfet_01v8#body	voltage
	32	m.xm4.msky130_fd_pr__nfet_01v8#dbody	voltage
	33	m.xm4.msky130_fd_pr__nfet_01v8#sbody	voltage
	34	net1	voltage
	35	net2	voltage
	36	net3	voltage
	37	net4	voltage
	38	s	voltage
	39	sky130_fd_pr__esd_nfet_05v0_nvt.pm3	voltage
	40	i(vb)	current
	41	i(vd)	current
	42	i(vg)	current
	43	i(vn_long)	current
	44	i(vn_lvt_long)	current
	45	i(vn_lvt_short)	current
	46	i(vn_short)	current
	47	i(vs)	current
Values:
 0	0.000000000000000e+00
	0.000000000000000e+00
	0.000000000000000e+00
	0.000000000000000e+00
	3.417815268752942e-12
	0.000000000000000e+00
	0.000000000000000e+00
	0.000000000000000e+00
	8.446074928834498e-13
	0.000000000000000e+00
	0.000000000000000e+00
	0.000000000000000e+00
	1.649469969906567e-10
	0.000000000000000e+00
	0.000000000000000e+00
	0.000000000000000e+00
	7.138593936527704e-13
	0.000000000000000e+00
	0.000000000000000e+00
	0.000000000000000e+00
	1.800000000000000e+00
	0.000000000000000e+00
	2.267867913520779e-11
	5.658740127629402e-11
	1.133933956723950e-11
	2.263602263926978e-11
	5.656553384638586e-11
	1.131801131926895e-11
	2.462423376443858e-11
	5.756017859076792e-11
	1.231211688197522e-11
	2.263661143457472e-11
	5.656582824403842e-11
	1.131830571692129e-11
	1.800000000000000e+00
	1.800000000000000e+00
	1.800000000000000e+00
	1.800000000000000e+00
	0.000000000000000e+00
	0.000000000000000e+00
	7.322845248693783e-12
	-1.772590962900722e-10
	0.000000000000000e+00
	2.657429831742775e-12
	5.229594535194337e-12
	1.668425397838291e-10
	2.529532139305957e-12
	1.699232791459994e-10

 1	1.000000000000000e-02
	0.000000000000000e+00
	0.000000000000000e+00
	0.000000000000000e+00
	4.698408953645331e-12
	0.000000000000000e+00
	0.000000000000000e+00
	0.000000000000000e+00
	1.106616532684517e-12
	0.000000000000000e+00
	0.000000000000000e+00
	0.000000000000000e+00
	2.110132123716758e-10
	0.000000000000000e+00
	0.000000000000000e+00
	0.000000000000000e+00
	9.502751871328975e-13
	0.000000000000000e+00
	0.000000000000000e+00
	0.000000000000000e+00
	1.800000000000000e+00
	1.000000000000000e-02
	2.269915484838666e-11
	5.659763913288228e-11
	1.134957742382981e-11
	2.263982628893647e-11
	5.656743567121898e-11
	1.131991314410248e-11
	2.518284621078962e-11
	5.783948481390305e-11
	1.259142310518500e-11
	2.264086715143927e-11
	5.656795610247047e-11
	1.132043357535372e-11
	1.800000000000000e+00
	1.800000000000000e+00
	1.800000000000000e+00
	1.800000000000000e+00
	0.000000000000000e+00
	0.000000000000000e+00
	7.346331149737273e-12
	-2.251141495435149e-10
	0.000000000000000e+00
	2.920330643974012e-12
	6.501466032204917e-12
	2.129283416252292e-10
	2.764011242106790e-12
	2.177685130451991e-10

 2	2.000000000000000e-02
	0.000000000000000e+00
	0.000000000000000e+00
	0.000000000000000e+00
	6.458410043752062e-12
	0.000000000000000e+00
	0.000000000000000e+00
	0.000000000000000e+00
	1.449880083943288e-12
	0.000000000000000e+00
	0.000000000000000e+00
	0.000000000000000e+00
	2.699312495006800e-10
	0.000000000000000e+00
	0.000000000000000e+00
	0.000000000000000e+00
	1.264983742873217e-12
	0.000000000000000e+00
	0.000000000000000e+00
	0.000000000000000e+00
	1.800000000000000e+00
	2.000000000000000e-02
	2.272729590915069e-11
	5.661170966326266e-11
	1.136364795421302e-11
	2.264480953002026e-11
	5.656992729176056e-11
	1.132240476464462e-11
	2.589730233623556e-11
	5.819671287657435e-11
	1.294865116795178e-11
	2.264653221504415e-11
	5.657078863427260e-11
	1.132326610715636e-11
	1.800000000000000e+00
	1.800000000000000e+00
	1.800000000000000e+00
	1.800000000000000e+00
	0.000000000000000e+00
	0.000000000000000e+00
	7.376460969374554e-12
	-2.864979364858300e-10
	0.000000000000000e+00
	3.261391157138860e-12
	8.263612016889965e-12
	2.718749669838871e-10
	3.097966327914037e-12
	2.791045233712944e-10

 3	3.000000000000000e-02
	0.000000000000000e+00
	0.000000000000000e+00
	0.000000000000000e+00
	8.877042163304127e-12
	0.000000000000000e+00
	0.000000000000000e+00
	0.000000000000000e+00
	1.899584723249392e-12
	0.000000000000000e+00
	0.000000000000000e+00
	0.000000000000000e+00
	3.452805850938598e-10
	0.000000000000000e+00
	0.000000000000000e+00
	0.000000000000000e+00
	1.683911150609431e-12
	0.000000000000000e+00
	0.000000000000000e+00
	0.000000000000000e+00
	1.800000000000000e+00
	3.000000000000000e-02
	2.276596795348215e-11
	5.663104568542615e-11
	1.138298397638040e-11
	2.265133800193078e-11
	5.657319152771540e-11
	1.132566900060019e-11
	2.681100675267560e-11
	5.865356508472830e-11
	1.340550337622782e-11
	2.265407332050653e-11
	5.657455918700340e-11
	1.132703665988782e-11
	1.800000000000000e+00
	1.800000000000000e+00
	1.800000000000000e+00
	1.800000000000000e+00
	0.000000000000000e+00
	0.000000000000000e+00
	7.415118810902048e-12
	-3.651763336165459e-10
	0.000000000000000e+00
	3.723243935382925e-12
	1.068656274583191e-11
	3.472635512480338e-10
	3.502975687297294e-12
	3.577411231310730e-10

 4	4.000000000000000e-02
	0.000000000000000e+00
	0.000000000000000e+00
	0.000000000000000e+00
	1.220037890540929e-11
	0.000000000000000e+00
	0.000000000000000e+00
	0.000000000000000e+00
	2.488718000403077e-12
	0.000000000000000e+00
	0.000000000000000e+00
	0.000000000000000e+00
	4.416349893382397e-10
	0.000000000000000e+00
	0.000000000000000e+00
	0.000000000000000e+00
	2.241567798692073e-12
	0.000000000000000e+00
	0.000000000000000e+00
	0.000000000000000e+00
	1.800000000000000e+00
	4.000000000000000e-02
	2.281910548459941e-11
	5.665761445098171e-11
	1.140955274194129e-11
	2.265989059246777e-11
	5.657746782298335e-11
	1.132994529586910e-11
	2.797942032201391e-11
	5.923777186931295e-11
	1.398971016096862e-11
	2.266411168876031e-11
	5.657957837112976e-11
	1.133205584401507e-11
	1.800000000000000e+00
	1.800000000000000e+00
	1.800000000000000e+00
	1.800000000000000e+00
	0.000000000000000e+00
	0.000000000000000e+00
	7.464724493274102e-12
	-4.660449803850497e-10
	0.000000000000000e+00
	4.312994406063808e-12
	1.401190274918918e-11
	4.436699896359642e-10
	4.050093593832571e-12
	4.585656540427892e-10

 5	5.000000000000000e-02
	0.000000000000000e+00
	0.000000000000000e+00
	0.000000000000000e+00
	1.676618641942141e-11
	0.000000000000000e+00
	0.000000000000000e+00
	0.000000000000000e+00
	3.260481493497938e-12
	0.000000000000000e+00
	0.000000000000000e+00
	0.000000000000000e+00
	5.648375430857167e-10
	0.000000000000000e+00
	0.000000000000000e+00
	0.000000000000000e+00
	2.983890190836897e-12
	0.000000000000000e+00
	0.000000000000000e+00
	0.000000000000000e+00
	1.800000000000000e+00
	5.000000000000000e-02
	2.289210907521686e-11
	5.669411624628619e-11
	1.144605453725312e-11
	2.267109446854220e-11
	5.658306976101988e-11
	1.133554723390686e-11
	2.947339453248410e-11
	5.998475897444001e-11
	1.473669726629533e-11
	2.267747422205087e-11
	5.658625963777433e-11
	1.133873711066084e-11
	1.800000000000000e+00
	1.800000000000000e+00
	1.800000000000000e+00
	1.800000000000000e+00
	0.000000000000000e+00
	0.000000000000000e+00
	7.528386261695031e-12
	-5.954063908575336e-10
	0.000000000000000e+00
	5.073275133327115e-12
	1.860200882219942e-11
	5.669278380082687e-10
	4.803268893738277e-12
	5.878481011895195e-10

 6	6.000000000000000e-02
	0.000000000000000e+00
	0.000000000000000e+00
	0.000000000000000e+00
	2.303794193726990e-11
	0.000000000000000e+00
	0.000000000000000e+00
	0.000000000000000e+00
	4.271449204843482e-12
	0.000000000000000e+00
	0.000000000000000e+00
	0.000000000000000e+00
	7.223512079976649e-10
	0.000000000000000e+00
	0.000000000000000e+00
	0.000000000000000e+00
	3.972023273833759e-12
	0.000000000000000e+00
	0.000000000000000e+00
	0.000000000000000e+00
	1.800000000000000e+00
	6.000000000000000e-02
	2.299238927550056e-11
	5.674425634642225e-11
	1.149619463739925e-11
	2.268577092705320e-11
	5.659040799027447e-11
	1.134288546316307e-11
	3.138342168855667e-11
	6.093977255233817e-11
	1.569171084444874e-11
	2.269526158954999e-11
	5.659515332152296e-11
	1.134763079441104e-11
	1.800000000000000e+00
	1.800000000000000e+00
	1.800000000000000e+00
	1.800000000000000e+00
	0.000000000000000e+00
	0.000000000000000e+00
	7.610097108993312e-12
	-7.612470653839409e-10
	0.000000000000000e+00
	6.082245818106458e-12
	2.486189032424591e-11
	7.245191113725014e-10
	5.783817869087216e-12
	7.536326224136420e-10

 7	7.000000000000001e-02
	0.000000000000000e+00
	0.000000000000000e+00
	0.000000000000000e+00
	3.165138363632997e-11
	0.000000000000000e+00
	0.000000000000000e+00
	0.000000000000000e+00
	5.595699855736173e-12
	0.000000000000000e+00
	0.000000000000000e+00
	0.000000000000000e+00
	9.237054807327314e-10
	0.000000000000000e+00
	0.000000000000000e+00
	0.000000000000000e+00
	5.287354399563085e-12
	0.000000000000000e+00
	0.000000000000000e+00
	0.000000000000000e+00
	1.800000000000000e+00
	7.000000000000001e-02
	2.313011086758429e-11
	5.681311714245615e-11
	1.156505543344698e-11
	2.270499538385156e-11
	5.660002021867245e-11
	1.135249769156319e-11
	3.382504964902477e-11
	6.216058653239564e-11
	1.691252482483252e-11
	2.271893884361588e-11
	5.660699194855466e-11
	1.135946942144483e-11
	1.800000000000000e+00
	1.800000000000000e+00
	1.800000000000000e+00
	1.800000000000000e+00
	0.000000000000000e+00
	0.000000000000000e+00
	7.714987159534607e-12
	-9.739409279063693e-10
	0.000000000000000e+00
	7.403855306620244e-12
	3.347366828165832e-11
	9.259650823878474e-10
	7.098321930243401e-12
	9.662399186243823e-10

 8	8.000000000000000e-02
	0.000000000000000e+00
	0.000000000000000e+00
	0.000000000000000e+00
	4.347815382722058e-11
	0.000000000000000e+00
	0.000000000000000e+00
	0.000000000000000e+00
	7.330222907964369e-12
	0.000000000000000e+00
	0.000000000000000e+00
	0.000000000000000e+00
	1.181065144335657e-09
	0.000000000000000e+00
	0.000000000000000e+00
	0.000000000000000e+00
	7.038212888282316e-12
	0.000000000000000e+00
	0.000000000000000e+00
	0.000000000000000e+00
	1.800000000000000e+00
	8.000000000000000e-02
	2.331921039170741e-11
	5.690766690450675e-11
	1.165960519551659e-11
	2.273017585329129e-11
	5.661261045339073e-11
	1.136508792628427e-11
	3.694577617898817e-11
	6.372094979715165e-11
	1.847288809000559e-11
	2.275045601850819e-11
	5.662275053599915e-11
	1.137522800889212e-11
	1.800000000000000e+00
	1.800000000000000e+00
	1.800000000000000e+00
	1.800000000000000e+00
	0.000000000000000e+00
	0.000000000000000e+00
	7.849648107477321e-12
	-1.246782233010890e-09
	0.000000000000000e+00
	9.151790436590090e-12
	4.532552111413679e-11
	1.183451558972592e-09
	8.853362487570848e-12
	1.238911733959131e-09

 9	9.000000000000000e-02
	0.000000000000000e+00
	0.000000000000000e+00
	0.000000000000000e+00
	5.971272571296513e-11
	0.000000000000000e+00
	0.000000000000000e+00
	0.000000000000000e+00
	9.601989105209986e-12
	0.000000000000000e+00
	0.000000000000000e+00
	0.000000000000000e+00
	1.509954034411186e-09
	0.000000000000000e+00
	0.000000000000000e+00
	0.000000000000000e+00
	9.368785958989569e-12
	0.000000000000000e+00
	0.000000000000000e+00
	0.000000000000000e+00
	1.800000000000000e+00
	9.000000000000000e-02
	2.357878588813197e-11
	5.703745465270402e-11
	1.178939294373993e-11
	2.276315559131044e-11
	5.662910032239824e-11
	1.138157779529545e-11
	4.093382146915125e-11
	6.571497244194479e-11
	2.046691073533169e-11
	2.279240862587877e-11
	5.664372683968221e-11
	1.139620431257892e-11
	1.800000000000000e+00
	1.800000000000000e+00
	1.800000000000000e+00
	1.800000000000000e+00
	0.000000000000000e+00
	0.000000000000000e+00
	8.022550232764080e-12
	-1.596674792381236e-09
	0.000000000000000e+00
	1.142552719102241e-11
	6.156142262625508e-11
	1.512489689048380e-09
	1.119815351557918e-11
	1.588637535188365e-09

 10	9.999999999999999e-02
	0.000000000000000e+00
	0.000000000000000e+00
	0.000000000000000e+00
	8.199099396466655e-11
	0.000000000000000e+00
	0.000000000000000e+00
	0.000000000000000e+00
	1.257719553481304e-11
	0.000000000000000e+00
	0.000000000000000e+00
	0.000000000000000e+00
	1.930175416156515e-09
	0.000000000000000e+00
	0.000000000000000e+00
	0.000000000000000e+00
	1.247098373495481e-11
	0.000000000000000e+00
	0.000000000000000e+00
	0.000000000000000e+00
	1.800000000000000e+00
	9.999999999999999e-02
	2.393499278637302e-11
	5.721555810180393e-11
	1.196749639287562e-11
	2.280634730533135e-11
	5.665069617940601e-11
	1.140317365230800e-11
	4.602928222812695e-11
	6.826270282106414e-11
	2.301464111513201e-11
	2.284825123649603e-11
	5.667164814498790e-11
	1.142412561788956e-11
	1.800000000000000e+00
	1.800000000000000e+00
	1.800000000000000e+00
	1.800000000000000e+00
	0.000000000000000e+00
	0.000000000000000e+00
	8.244578312048118e-12
	-2.045453584287316e-09
	0.000000000000000e+00
	1.439559582649963e-11
	8.385114824704942e-11
	1.932917825797631e-09
	1.428901441613561e-11
	2.037214589390933e-09

 11	1.100000000000000e-01
	0.000000000000000e+00
	0.000000000000000e+00
	0.000000000000000e+00
	1.125518433715170e-10
	0.000000000000000e+00
	0.000000000000000e+00
	0.000000000000000e+00
	1.647335024571585e-11
	0.000000000000000e+00
	0.000000000000000e+00
	0.000000000000000e+00
	2.466981452464552e-09
	0.000000000000000e+00
	0.000000000000000e+00
	0.000000000000000e+00
	1.660022798177549e-11
	0.000000000000000e+00
	0.000000000000000e+00
	0.000000000000000e+00
	1.800000000000000e+00
	1.100000000000000e-01
	2.442362673164726e-11
	5.745987507441277e-11
	1.221181336553355e-11
	2.286290858459109e-11
	5.667897681903234e-11
	1.143145429194062e-11
	5.253830211215820e-11
	7.151721276260903e-11
	2.626915105754680e-11
	2.292258169297777e-11
	5.670881337322485e-11
	1.146129084613311e-11
	1.800000000000000e+00
	1.800000000000000e+00
	1.800000000000000e+00
	1.800000000000000e+00
	0.000000000000000e+00
	0.000000000000000e+00
	8.529720134662634e-12
	-2.621149519654864e-09
	0.000000000000000e+00
	1.830358087318018e-11
	1.144329075941641e-10
	2.469988658049260e-09
	1.842437313825940e-11
	2.612606874063570e-09

 12	1.200000000000000e-01
	0.000000000000000e+00
	0.000000000000000e+00
	0.000000000000000e+00
	1.544569224474040e-10
	0.000000000000000e+00
	0.000000000000000e+00
	0.000000000000000e+00
	2.157506300696437e-11
	0.000000000000000e+00
	0.000000000000000e+00
	0.000000000000000e+00
	3.152557859942257e-09
	0.000000000000000e+00
	0.000000000000000e+00
	0.000000000000000e+00
	2.209646093201140e-11
	0.000000000000000e+00
	0.000000000000000e+00
	0.000000000000000e+00
	1.800000000000000e+00
	1.200000000000000e-01
	2.509363659716353e-11
	5.779488000713212e-11
	1.254681829832023e-11
	2.293697112981719e-11
	5.671600809164077e-11
	1.146848556455726e-11
	6.085105736251829e-11
	7.567359038718788e-11
	3.042552868323664e-11
	2.302151928915032e-11
	5.675828217130590e-11
	1.151075964422294e-11
	1.800000000000000e+00
	1.800000000000000e+00
	1.800000000000000e+00
	1.800000000000000e+00
	0.000000000000000e+00
	0.000000000000000e+00
	8.895950744969858e-12
	-3.359602374075621e-09
	0.000000000000000e+00
	2.339817228858010e-11
	1.563762452860828e-10
	3.155896877160558e-09
	2.393107934040017e-11
	3.350686306328597e-09

 13	1.300000000000000e-01
	0.000000000000000e+00
	0.000000000000000e+00
	0.000000000000000e+00
	2.118890379906368e-10
	0.000000000000000e+00
	0.000000000000000e+00
	0.000000000000000e+00
	2.825467051794049e-11
	0.000000000000000e+00
	0.000000000000000e+00
	0.000000000000000e+00
	4.027906838202925e-09
	0.000000000000000e+00
	0.000000000000000e+00
	0.000000000000000e+00
	2.941209819902055e-11
	0.000000000000000e+00
	0.000000000000000e+00
	0.000000000000000e+00
	1.800000000000000e+00
	1.300000000000000e-01
	2.601189371270788e-11
	5.825400856485116e-11
	1.300594685613151e-11
	2.303394015964702e-11
	5.676449260654962e-11
	1.151697007947688e-11
	7.146456088938753e-11
	8.098034214985489e-11
	3.573228044732218e-11
	2.315320794973151e-11
	5.682412650158955e-11
	1.157660397451828e-11
	1.800000000000000e+00
	1.800000000000000e+00
	1.800000000000000e+00
	1.800000000000000e+00
	0.000000000000000e+00
	0.000000000000000e+00
	9.366367478303680e-12
	-4.306848211399483e-09
	0.000000000000000e+00
	3.009148485944024e-11
	2.138378363270022e-10
	4.031683431549027e-09
	3.123545866401400e-11
	4.297462644910507e-09

 14	1.400000000000000e-01
	0.000000000000000e+00
	0.000000000000000e+00
	0.000000000000000e+00
	2.905564240563630e-10
	0.000000000000000e+00
	0.000000000000000e+00
	0.000000000000000e+00
	3.699916381326107e-11
	0.000000000000000e+00
	0.000000000000000e+00
	0.000000000000000e+00
	5.145232489255553e-09
	0.000000000000000e+00
	0.000000000000000e+00
	0.000000000000000e+00
	3.914921815967646e-11
	0.000000000000000e+00
	0.000000000000000e+00
	0.000000000000000e+00
	1.800000000000000e+00
	1.400000000000000e-01
	2.726965231687364e-11
	5.888288786686124e-11
	1.363482615826796e-11
	2.316088529697609e-11
	5.682796517520623e-11
	1.158044264814757e-11
	8.501154164027777e-11
	8.775383252432021e-11
	4.250577082359816e-11
	2.332848567532978e-11
	5.691176536437942e-11
	1.166424283732372e-11
	1.800000000000000e+00
	1.800000000000000e+00
	1.800000000000000e+00
	1.800000000000000e+00
	0.000000000000000e+00
	0.000000000000000e+00
	9.970645967049768e-12
	-5.521926027540758e-09
	0.000000000000000e+00
	3.883116050928948e-11
	2.925588660218637e-10
	5.149544790583604e-09
	4.099121042600018e-11
	5.511937295284707e-09

 15	1.500000000000000e-01
	0.000000000000000e+00
	0.000000000000000e+00
	0.000000000000000e+00
	3.982390788823555e-10
	0.000000000000000e+00
	0.000000000000000e+00
	0.000000000000000e+00
	4.844532515822115e-11
	0.000000000000000e+00
	0.000000000000000e+00
	0.000000000000000e+00
	6.570959141712407e-09
	0.000000000000000e+00
	0.000000000000000e+00
	0.000000000000000e+00
	5.210903541125708e-11
	0.000000000000000e+00
	0.000000000000000e+00
	0.000000000000000e+00
	1.800000000000000e+00
	1.500000000000000e-01
	2.899127854045552e-11
	5.974370097855254e-11
	1.449563927013223e-11
	2.332705061639634e-11
	5.691104783490598e-11
	1.166352530786576e-11
	1.022969695081012e-10
	9.639654645698173e-11
	5.114848475857009e-11
	2.356177511249826e-11
	5.702841008295133e-11
	1.178088755591636e-11
	1.800000000000000e+00
	1.800000000000000e+00
	1.800000000000000e+00
	1.800000000000000e+00
	0.000000000000000e+00
	0.000000000000000e+00
	1.074690632100389e-11
	-7.080522834712610e-09
	0.000000000000000e+00
	5.028510940974229e-11
	4.003126718998828e-10
	6.575959332622006e-09
	5.396572078097961e-11
	7.069752581164053e-09

 16	1.600000000000000e-01
	0.000000000000000e+00
	0.000000000000000e+00
	0.000000000000000e+00
	5.455249454578160e-10
	0.000000000000000e+00
