Title: AoE 2_13 differential amplifier
Date: Sun Jan 24 18:31:52  2021
Plotname: DC transfer characteristic
Flags: real
Sckt. naming: from bottom to top
No. Variables: 19
No. Points: 21
Variables:
	0	sweep	voltage
	1	v(1)	voltage
	2	v(2)	voltage
	3	v(11)	voltage
	4	v(20)	voltage
	5	v(21)	voltage
	6	v(22)	voltage
	7	v(77)	voltage
	8	v(88)	voltage
	9	q1#base	voltage
	10	q1#collector	voltage
	11	q1#emitter	voltage
	12	q2#base	voltage
	13	q2#collector	voltage
	14	q2#emitter	voltage
	15	v1#branch	current
	16	v2#branch	current
	17	vn#branch	current
	18	vp#branch	current
Values:
 0	-1.000000000000000e+00
	-1.000000000000000e+00
	0.000000000000000e+00
	-7.917074183829118e-01
	-7.917074378711664e-01
	-6.022635565310362e-01
	8.716237997870134e-01
	1.500000000000000e+01
	-1.500000000000000e+01
	-9.999999999980587e-01
	1.499999999998605e+01
	-7.917074183704491e-01
	-1.065532004222462e-06
	8.715012031572655e-01
	-6.021424071689192e-01
	1.941335980859549e-12
	-1.065532004222462e-06
	1.894439008283845e-04
	-1.883783707690156e-04

 1	-9.000000000000000e-01
	-9.000000000000000e-01
	0.000000000000000e+00
	-7.917074185028914e-01
	-7.917074379340882e-01
	-6.022635565377392e-01
	8.716237955921761e-01
	1.500000000000000e+01
	-1.500000000000000e+01
	-8.999999999980709e-01
	1.499999999998610e+01
	-7.917074184904651e-01
	-1.065532004603508e-06
	8.715011989623918e-01
	-6.021424071755862e-01
	1.929123527588672e-12
	-1.065532004603508e-06
	1.894439008275455e-04
	-1.883783707548048e-04

 2	-8.000000000000000e-01
	-8.000000000000000e-01
	0.000000000000000e+00
	-7.917074185960499e-01
	-7.917074379838680e-01
	-6.022635565448041e-01
	8.716237924111890e-01
	1.500000000000000e+01
	-1.500000000000000e+01
	-7.999999999980838e-01
	1.499999999998613e+01
	-7.917074185836513e-01
	-1.065532004891696e-06
	8.715011957813772e-01
	-6.021424071826237e-01
	1.916244940503020e-12
	-1.065532004891696e-06
	1.894439008268818e-04
	-1.883783707476994e-04

 3	-7.000000000000001e-01
	-7.000000000000001e-01
	0.000000000000000e+00
	-7.917074173378197e-01
	-7.917074373115087e-01
	-6.022635564493509e-01
	8.716238354141697e-01
	1.500000000000000e+01
	-1.500000000000000e+01
	-6.999999999981077e-01
	1.499999999998577e+01
	-7.917074173250465e-01
	-1.065532000992251e-06
	8.715012387847310e-01
	-6.021424070875395e-01
	1.892375145473579e-12
	-1.065532000992251e-06
	1.894439008358466e-04
	-1.883783707263831e-04

 4	-6.000000000000001e-01
	-6.000000000000001e-01
	0.000000000000000e+00
	-7.917073527712646e-01
	-7.917074028103863e-01
	-6.022635515536463e-01
	8.716260408004840e-01
	1.500000000000000e+01
	-1.500000000000000e+01
	-5.999999999983858e-01
	1.499999999996638e+01
	-7.917073527392645e-01
	-1.065531800986651e-06
	8.715034441901821e-01
	-6.021424022107676e-01
	1.614264277804978e-12
	-1.065531800986651e-06
	1.894439012958615e-04
	-1.883783711171816e-04

 5	-5.000000000000001e-01
	-5.000000000000001e-01
	0.000000000000000e+00
	-7.917043051145420e-01
	-7.917057742951865e-01
	-6.022633204664334e-01
	8.717301398776716e-01
	1.500000000000000e+01
	-1.500000000000000e+01
	-5.000000000067963e-01
	1.499999999904828e+01
	-7.917043041750009e-01
	-1.065522360349749e-06
	8.716075441706721e-01
	-6.021421720172099e-01
	-6.796230245242896e-12
	-1.065522360349749e-06
	1.894439230093975e-04
	-1.883783938545491e-04

 6	-4.000000000000001e-01
	-4.000000000000001e-01
	0.000000000000000e+00
	-7.915612135498596e-01
	-7.916293126128826e-01
	-6.022524691774106e-01
	8.766176784026288e-01
	1.500000000000000e+01
	-1.500000000000000e+01
	-4.000000003408934e-01
	1.499999995590298e+01
	-7.915611700005087e-01
	-1.065079147600634e-06
	8.764951251064304e-01
	-6.021313626860336e-01
	-3.408933135773395e-10
	-1.065079147600634e-06
	1.894449424984949e-04
	-1.883795224593143e-04

 7	-3.000000000000002e-01
	-3.000000000000002e-01
	0.000000000000000e+00
	-7.861084167213114e-01
	-7.887145556084407e-01
	-6.018368885703491e-01
	1.062793184427830e+00
	1.500000000000000e+01
	-1.500000000000000e+01
	-3.000000123905331e-01
	1.499999831198857e+01
	-7.861067500954929e-01
	-1.048242830620891e-06
	1.062672246638556e+00
	-6.017173803022783e-01
	-1.239053293300429e-08
	-1.048242830620891e-06
	1.894838059252208e-04
	-1.884231725668428e-04

 8	-2.000000000000001e-01
	-2.000000000000001e-01
	0.000000000000000e+00
	-7.424493554520271e-01
	-7.652986577972676e-01
	-5.983519422464715e-01
	2.547780141400816e+00
	1.500000000000000e+01
	-1.500000000000000e+01
	-2.000001072912841e-01
	1.499998519949920e+01
	-7.424347433231773e-01
	-9.171174363492717e-07
	2.547672089338363e+00
	-5.982451798218767e-01
	-1.072912839406026e-07
	-9.171174363492717e-07
	1.897960178960364e-04
	-1.887716091744096e-04

 9	-1.000000000000001e-01
	-1.000000000000001e-01
	0.000000000000000e+00
	-6.665050101694300e-01
	-7.241550337841576e-01
	-5.914604578493401e-01
	5.100712422545815e+00
	1.500000000000000e+01
	-1.500000000000000e+01
	-1.000002701360852e-01
	1.499996265716920e+01
	-6.664681429793283e-01
	-7.040749023294954e-07
	5.100626523127744e+00
	-5.913755996680298e-01
	-2.701360850981827e-07
	-7.040749023294954e-07
	1.903445995495446e-04
	-1.893703885613718e-04

 10	-1.387778780781446e-16
	-1.387778780781446e-16
	0.000000000000000e+00
	-5.798937414133398e-01
	-6.762780948025005e-01
	-5.816794894556943e-01
	7.941384687846163e+00
	1.500000000000000e+01
	-1.500000000000000e+01
	-4.516033732211606e-07
	1.499993756696629e+01
	-5.798321036193474e-01
	-4.837345189489617e-07
	7.941323437888229e+00
	-5.816189936475749e-01
	-4.516033730823827e-07
	-4.837345189489617e-07
	1.909829587359667e-04
	-1.900476208511748e-04

 11	9.999999999999987e-02
	9.999999999999987e-02
	0.000000000000000e+00
	-4.887228334434530e-01
	-6.238804461584475e-01
	-5.673564648222215e-01
	1.078163636075562e+01
	1.500000000000000e+01
	-1.500000000000000e+01
	9.999936635391175e-02
	1.499991245180252e+01
	-4.886364001501218e-01
	-2.791328132555650e-07
	1.078159975660820e+01
	-5.673203177361569e-01
	-6.336460881134487e-07
	-2.791328132555650e-07
	1.916815940512207e-04
	-1.907688151554510e-04

 12	1.999999999999999e-01
	1.999999999999999e-01
	0.000000000000000e+00
	-3.947446852245279e-01
	-5.648454410881132e-01
	-5.424774694995399e-01
	1.333045778002416e+01
	1.500000000000000e+01
	-1.500000000000000e+01
	1.999992018173823e-01
	1.499988981788533e+01
	-3.946359057911531e-01
	-1.074086565745349e-07
	1.333044329284980e+01
	-5.424631651817091e-01
	-7.981826175285089e-07
	-1.074086565745349e-07
	1.924687274521585e-04
	-1.915631361804060e-04

 13	2.999999999999999e-01
	2.999999999999999e-01
	0.000000000000000e+00
	-2.977831460495930e-01
	-4.886783876633626e-01
	-4.860893411126437e-01
	1.480675012558624e+01
	1.500000000000000e+01
	-1.500000000000000e+01
	2.999991032702743e-01
	1.499987634896846e+01
	-2.976610685425810e-01
	-1.238155901509654e-08
	1.480674844869266e+01
	-4.860876854173745e-01
	-8.967297255857432e-07
	-1.238155901509654e-08
	1.934842881644885e-04
	-1.925751768894202e-04

 14	3.999999999999999e-01
	3.999999999999999e-01
	0.000000000000000e+00
	-1.983273895439264e-01
	-3.930156951544103e-01
	-3.929442100336196e-01
	1.499466555755405e+01
	1.500000000000000e+01
	-1.500000000000000e+01
	3.999990843756103e-01
	1.499987389273906e+01
	-1.982028863724885e-01
	-3.592212709591176e-10
	1.499466551126532e+01
	-3.929441643188848e-01
	-9.156243896413230e-07
	-3.592212709591176e-10
	1.947597907312745e-04
	-1.938438071213966e-04

 15	4.999999999999999e-01
	4.999999999999999e-01
	0.000000000000000e+00
	-9.854292867145123e-02
	-2.946131227840190e-01
	-2.946114918670403e-01
	1.499987826677026e+01
	1.500000000000000e+01
	-1.500000000000000e+01
	4.999990767801191e-01
	1.499987299834917e+01
	-9.841754178231625e-02
	-7.808113451742176e-12
	1.499987826571394e+01
	-2.946114908240688e-01
	-9.232198808217795e-07
	-7.808113451742176e-12
	1.960718250295464e-04
	-1.951485973457068e-04

 16	5.999999999999999e-01
	5.999999999999999e-01
	0.000000000000000e+00
	1.251666659992032e-03
	-1.961331697637779e-01
	-1.961331151177315e-01
	1.499999578881505e+01
	1.500000000000000e+01
	-1.500000000000000e+01
	5.999990694831357e-01
	1.499987214752883e+01
	1.377894262885032e-03
	1.501221596912865e-12
	1.499999578877851e+01
	-1.961331150827853e-01
	-9.305168641171591e-07
	1.501221596912865e-12
	1.973848910698163e-04
	-1.964543757111414e-04

 17	6.999999999999998e-01
	6.999999999999998e-01
	0.000000000000000e+00
	1.010475716095829e-01
	-9.765040387223528e-02
	-9.765038473901658e-02
	1.499999842935065e+01
	1.500000000000000e+01
	-1.500000000000000e+01
	6.999990621756687e-01
	1.499987129769363e+01
	1.011746389649035e-01
	1.808975271774078e-12
	1.499999842933702e+01
	-9.765038472678086e-02
	-9.378243311930490e-07
	1.808975271774078e-12
	1.986979946150369e-04
	-1.977601720959399e-04

 18	7.999999999999998e-01
	7.999999999999998e-01
	0.000000000000000e+00
	2.008445734523045e-01
	8.334786490504038e-04
	8.334968944503384e-04
	1.499999849476828e+01
	1.500000000000000e+01
	-1.500000000000000e+01
	7.999990548506735e-01
	1.499987044788268e+01
	2.009724805474311e-01
	1.823377309704603e-12
	1.499999849475522e+01
	8.334969061182715e-04
	-9.451493263590294e-07
	1.823377309704603e-12
	2.000111130486540e-04
	-1.990659655497495e-04

 19	8.999999999999998e-01
	8.999999999999998e-01
	0.000000000000000e+00
	3.006426529484727e-01
	9.931842541581579e-02
	9.931844355536969e-02
	1.499999850251275e+01
	1.500000000000000e+01
	-1.500000000000000e+01
	8.999990475079289e-01
	1.499986959807456e+01
	3.007713997919798e-01
	1.824730534755240e-12
	1.499999850249976e+01
	9.931844356696994e-02
	-9.524920708825491e-07
	1.824730534755240e-12
	2.013242456722109e-04
	-2.003717554330819e-04

 20	9.999999999999998e-01
	9.999999999999998e-01
	0.000000000000000e+00
	4.004417954366713e-01
	1.978044212052265e-01
	1.978044392565181e-01
	1.499999850922639e+01
	1.500000000000000e+01
	-1.500000000000000e+01
	9.999990401473674e-01
	1.499986874826894e+01
	4.005713820374923e-01
	1.825338227132820e-12
	1.499999850921346e+01
	1.978044392680618e-01
	-9.598526323761902e-07
	1.825338227132820e-12
	2.026373922827364e-04
	-2.016775414794836e-04

