Title: ** 2nd order low pass filter with an opamp (lm741) -- simulation circuit **
Date: Mon Jun  1 19:47:50  2020
Plotname: AC Analysis
Flags: complex
No. Variables: 44
No. Points: 1025
Variables:
	0	frequency	frequency
	1	i(a$poly$e.xu1.eos)	current
	2	i(e.xu1.e1)	current
	3	i(e.xu1.eh)	current
	4	i(l.xu1.l2)	current
	5	i(l.xu1.l3)	current
	6	n_r1r2c1	voltage
	7	neg	voltage
	8	pos	voltage
	9	i(v.xu1.v2)	current
	10	i(v.xu1.v3)	current
	11	i(v.xu1.v4)	current
	12	i(v.xu1.v5)	current
	13	i(v.xu1.v6)	current
	14	i(v.xu1.v7)	current
	15	i(vc)	current
	16	vcc	voltage
	17	i(ve)	current
	18	vee	voltage
	19	vin	voltage
	20	vout	voltage
	21	vs	voltage
	22	i(vsource)	current
	23	xu1.3	voltage
	24	xu1.4	voltage
	25	xu1.5	voltage
	26	xu1.6	voltage
	27	xu1.7	voltage
	28	xu1.8	voltage
	29	xu1.9	voltage
	30	xu1.10	voltage
	31	xu1.15	voltage
	32	xu1.16	voltage
	33	xu1.17	voltage
	34	xu1.20	voltage
	35	xu1.21	voltage
	36	xu1.22	voltage
	37	xu1.23	voltage
	38	xu1.24	voltage
	39	xu1.25	voltage
	40	xu1.26	voltage
	41	xu1.27	voltage
	42	xu1.49	voltage
	43	xu1.98	voltage
Values:
 0	1.000000000000000e+00,0.000000000000000e+00
	-8.823762874620607e-12,-1.562593090147018e-12
	2.010059206694614e-05,-3.054991548852697e-09
	2.034817251023855e-12,-4.007992591809366e-16
	-3.162342175828700e-08,6.372430706751937e-12
	2.010059207428317e-05,-3.054991550091172e-09
	1.000000034823363e+00,-1.005216099172185e-04
	1.000026615247796e+00,-2.019690885579545e-04
	1.000000058899945e+00,-2.010559695802313e-04
	-1.013688699236405e-12,2.045149072941403e-16
	1.013688699236391e-12,-2.045149072941375e-16
	3.662007658774364e-15,-5.565707921497447e-19
	-3.662007421013656e-15,5.565707560136537e-19
	1.004288784470968e-05,-1.526369839726598e-09
	-1.005770422224904e-05,1.528621709125146e-09
	-1.005770324330629e-05,1.528621502484434e-09
	0.000000000000000e+00,0.000000000000000e+00
	-1.004288683102098e-05,1.526369635211691e-09
	0.000000000000000e+00,0.000000000000000e+00
	1.000000000344786e+00,-9.952634645269160e-07
	1.010026927643647e+00,-2.039921716022184e-04
	1.000000000000000e+00,0.000000000000000e+00
	3.447857277460997e-11,-9.952634645269160e-08
	1.000013337073871e+00,-2.015125290690929e-04
	1.000029148795619e+00,-2.014630111687664e-04
	2.528558716963225e-06,5.049764036984747e-07
	-2.527524686601890e-06,-5.049766120112254e-07
	1.000031682342944e+00,-2.009569338789827e-04
	0.000000000000000e+00,0.000000000000000e+00
	1.013688699221985e+00,-2.045149072912311e-04
	0.000000000000000e+00,0.000000000000000e+00
	1.013688691775315e+00,-2.045487053692341e-04
	3.162344299906297e-05,9.903570124856371e-08
	2.124077596496621e-11,1.054081319553156e-07
	1.010026927643647e+00,-2.039921715895887e-04
	1.010026927643647e+00,-2.039921715895887e-04
	1.010026927643647e+00,-2.039921715895887e-04
	1.013688691775315e+00,-2.045487053692341e-04
	1.013437619579197e+00,-2.045105461232409e-04
	1.013437249169759e+00,-2.045104898265060e-04
	1.010026927643647e+00,-2.039921715895887e-04
	1.010026927643647e+00,-2.039921715895887e-04
	0.000000000000000e+00,0.000000000000000e+00
	0.000000000000000e+00,0.000000000000000e+00

 1	9.865527343750000e+01,0.000000000000000e+00
	-1.188634091621032e-11,-1.541155048881556e-10
	2.019585956029857e-05,-3.033108625774333e-07
	2.034175353998074e-12,-4.045759752537271e-14
	-3.161412486261155e-08,6.285525302704427e-10
	2.019585956766758e-05,-3.033108627004123e-07
	9.999036089233386e-01,-9.916068412212603e-03
	9.997317305123420e-01,-1.992146552161139e-02
	9.997069604791227e-01,-1.983140613954932e-02
	-1.013408280391242e-12,2.017293666907582e-14
	1.013408280391228e-12,-2.017293666907555e-14
	3.679363878388323e-15,-5.525840721744967e-17
	-3.679363639500743e-15,5.525840362972605e-17
	1.009048648000291e-05,-1.515436443264682e-07
	-1.010537308030737e-05,1.517672182509041e-07
	-1.010537210159208e-05,1.517671987925206e-07
	0.000000000000000e+00,0.000000000000000e+00
	-1.009048546659463e-05,1.515436241535315e-07
	0.000000000000000e+00,0.000000000000000e+00
	9.999990456329043e-01,-9.817889517042180e-05
	1.009729087470653e+00,-2.012101445009289e-02
	1.000000000000000e+00,0.000000000000000e+00
	-9.543670956291272e-08,-9.817889517042182e-06
	9.997193454957323e-01,-1.987643583058035e-02
	9.997352559053363e-01,-1.987155209650199e-02
	3.520174763238515e-06,4.980479866768805e-05
	-3.519141036911755e-06,-4.980481921487354e-05
	9.997387812976379e-01,-1.982163868119666e-02
	0.000000000000000e+00,0.000000000000000e+00
	1.013408280376827e+00,-2.017293666878887e-02
	0.000000000000000e+00,0.000000000000000e+00
	1.013408206667748e+00,-2.017626918132009e-02
	3.182081851532467e-05,9.767458352655194e-06
	2.066936527131239e-07,1.039601088292564e-05
	1.009729087470672e+00,-2.012101444884101e-02
	1.009729087470672e+00,-2.012101444884101e-02
	1.009729087470672e+00,-2.012101444884101e-02
	1.013408206667748e+00,-2.017626918132009e-02
	1.013155944505748e+00,-2.017248059021193e-02
	1.013155572340740e+00,-2.017247500086383e-02
	1.009729087470672e+00,-2.012101444884101e-02
	1.009729087470672e+00,-2.012101444884101e-02
	0.000000000000000e+00,0.000000000000000e+00
	0.000000000000000e+00,0.000000000000000e+00

 2	1.963105468750000e+02,0.000000000000000e+00
	-2.094486244390673e-11,-3.064184262748671e-10
	2.047750403911391e-05,-6.148475996175726e-07
	2.032618849007057e-12,-8.046660148511799e-14
	-3.158662462332461e-08,1.250019461283169e-09
	2.047750404657502e-05,-6.148475998671898e-07
	9.996183019892215e-01,-1.972621663234242e-02
	9.988594609208579e-01,-3.961833740819689e-02
	9.988399745106069e-01,-3.943927643509228e-02
	-1.012578772535139e-12,4.012056757345274e-14
	1.012578772535125e-12,-4.012056757345219e-14
	3.730675015642126e-15,-1.120154377184208e-16
	-3.730674773423205e-15,1.120154304456723e-16
	1.023120491771288e-05,-3.071971941912016e-07
	-1.024629912140104e-05,3.076504054267234e-07
	-1.024629814370881e-05,3.076503667341824e-07
	0.000000000000000e+00,0.000000000000000e+00
	-1.023120390513410e-05,3.071971540706340e-07
	0.000000000000000e+00,0.000000000000000e+00
	9.999962208117744e-01,-1.953090755677467e-04
	1.008848075555814e+00,-4.001518540001388e-02
	1.000000000000000e+00,0.000000000000000e+00
	-3.779188225555563e-07,-1.953090755677467e-05
	9.988497177157324e-01,-3.952880692164459e-02
	9.988659200026495e-01,-3.951909759668309e-02
	6.453183560628517e-06,9.902361017843919e-05
	-6.452150733027295e-06,-9.902365104120028e-05
	9.988723790831722e-01,-3.941985780466212e-02
	0.000000000000000e+00,0.000000000000000e+00
	1.012578772520736e+00,-4.012056757288204e-02
	0.000000000000000e+00,0.000000000000000e+00
	1.012578502477979e+00,-4.012719338606985e-02
	3.240457256524163e-05,1.941863043016143e-05
	8.179479419170239e-07,2.066864989144459e-05
	1.008848075555890e+00,-4.001518539748807e-02
	1.008848075555890e+00,-4.001518539748807e-02
	1.008848075555890e+00,-4.001518539748807e-02
	1.012578502477979e+00,-4.012719338606985e-02
	1.012322722355036e+00,-4.011951345621507e-02
	1.012322344999944e+00,-4.011950212593419e-02
	1.008848075555890e+00,-4.001518539748807e-02
	1.008848075555890e+00,-4.001518539748807e-02
	0.000000000000000e+00,0.000000000000000e+00
	0.000000000000000e+00,0.000000000000000e+00

 3	2.939658203125000e+02,0.000000000000000e+00
	-3.598068648885371e-11,-4.582246362281256e-10
	2.094453531643892e-05,-9.487887346207660e-07
	2.030034787595418e-12,-1.203995303916980e-13
	-3.154097230550202e-08,1.870069256261326e-09
	2.094453532406358e-05,-9.487887350053800e-07
	9.991444118941404e-01,-2.952563140933057e-02
	9.974114329754588e-01,-5.927025210750385e-02
	9.974007167574582e-01,-5.900247699861040e-02
	-1.011201637616367e-12,6.002688287791884e-14
	1.011201637616353e-12,-6.002688287791802e-14
	3.815760674250683e-15,-1.728541926111861e-16
	-3.815760426507263e-15,1.728541813883965e-16
	1.046454842931061e-05,-4.740446857675197e-07
	-1.047998688712354e-05,4.747440488534903e-07
	-1.047998591111552e-05,4.747439909821624e-07
	0.000000000000000e+00,0.000000000000000e+00
	-1.046454741810897e-05,4.740446257406368e-07
	0.000000000000000e+00,0.000000000000000e+00
	9.999915288306350e-01,-2.923329842507977e-04
	1.007385534751818e+00,-5.986394852145605e-02
	1.000000000000000e+00,0.000000000000000e+00
	-8.471169365004139e-07,-2.923329842507977e-05
	9.974060748664585e-01,-5.913636455305712e-02
	9.974227615526723e-01,-5.912184677340175e-02
	1.132154270455654e-05,1.480814597571295e-04
	-1.132051136920609e-05,-1.480815208891387e-04
	9.974340901276606e-01,-5.897344146844965e-02
	0.000000000000000e+00,0.000000000000000e+00
	1.011201637601983e+00,-6.002688287706498e-02
	0.000000000000000e+00,0.000000000000000e+00
	1.011201041674411e+00,-6.003679121522509e-02
	3.337337020231666e-05,2.903553016075542e-05
	1.832397896814648e-06,3.090559941701674e-05
	1.007385534751994e+00,-5.986394851758751e-02
	1.007385534751994e+00,-5.986394851758751e-02
	1.007385534751994e+00,-5.986394851758751e-02
	1.011201041674411e+00,-6.003679121522509e-02
	1.010939427963678e+00,-6.002494009808090e-02
	1.010939042002233e+00,-6.002492261400377e-02
	1.007385534751994e+00,-5.986394851758751e-02
	1.007385534751994e+00,-5.986394851758751e-02
	0.000000000000000e+00,0.000000000000000e+00
	0.000000000000000e+00,0.000000000000000e+00

 4	3.916210937500000e+02,0.000000000000000e+00
	-5.696291173201319e-11,-6.092888707568728e-10
	2.159531263691561e-05,-1.316172660313034e-06
	2.026427293543061e-12,-1.602230452533020e-13
	-3.147725290155949e-08,2.488001855427910e-09
	2.159531264478100e-05,-1.316172660845821e-06
	9.984824329612904e-01,-3.930899573120237e-02
	9.953903432545766e-01,-7.885500096881559e-02
	9.953918659956206e-01,-7.849894112573001e-02
	-1.009279299675266e-12,7.987146752361860e-14
	1.009279299675252e-12,-7.987146752361751e-14
	3.934321934725768e-15,-2.397856912015676e-16
	-3.934321679284882e-15,2.397856756331641e-16
	1.078969724182827e-05,-6.576012471556231e-07
	-1.080561539508734e-05,6.585714131575738e-07
	-1.080561442141776e-05,6.585713361936077e-07
	0.000000000000000e+00,0.000000000000000e+00
	-1.078969623254897e-05,6.576011672841556e-07
	0.000000000000000e+00,0.000000000000000e+00
	9.999849745837751e-01,-3.891979775366571e-04
	1.005344188669481e+00,-7.964487254502001e-02
	1.000000000000000e+00,0.000000000000000e+00
	-1.502541622483422e-06,-3.891979775366572e-05
	9.953911046250986e-01,-7.867697104727281e-02
	9.954084671262395e-01,-7.865767040657343e-02
	1.811523565087292e-05,1.968988686033984e-04
	-1.811420639818984e-05,-1.968989499354507e-04
	9.954265909943423e-01,-7.846033988309122e-02
	0.000000000000000e+00,0.000000000000000e+00
	1.009279299660910e+00,-7.987146752248246e-02
	0.000000000000000e+00,0.000000000000000e+00
	1.009278248968258e+00,-7.988464228492376e-02
	3.472499872167567e-05,3.860124263880394e-05
	3.247745820116182e-06,4.108924449423185e-05
	1.005344188669805e+00,-7.964487253970620e-02
	1.005344188669805e+00,-7.964487253970620e-02
	1.005344188669805e+00,-7.964487253970620e-02
	1.009278248968258e+00,-7.988464228492376e-02
	1.009008506537212e+00,-7.986820225374486e-02
	1.009008108583381e+00,-7.986817799959484e-02
	1.005344188669805e+00,-7.964487253970620e-02
	1.005344188669805e+00,-7.964487253970620e-02
	0.000000000000000e+00,0.000000000000000e+00
	0.000000000000000e+00,0.000000000000000e+00

 5	4.892763671875000e+02,0.000000000000000e+00
	-8.384849935574610e-11,-7.593680382421789e-10
	2.242755237969601e-05,-1.727910902566895e-06
	2.021802152720291e-12,-1.998980276068840e-13
	-3.139558480790776e-08,3.103123026083342e-09
	2.242755238785873e-05,-1.727910903264383e-06
	9.976330547950096e-01,-4.907101924461042e-02
	9.927999481527661e-01,-9.835056023236068e-02
	9.928171538241342e-01,-9.790678575526474e-02
	-1.006815135817139e-12,9.963407003339130e-14
	1.006815135817125e-12,-9.963407003338993e-14
	4.085942757726089e-15,-3.147978396754262e-16
	-4.085942492440825e-15,3.147978192367722e-16
	1.120551038647465e-05,-8.633186197855389e-07
	-1.122204199321747e-05,8.645922827802723e-07
	-1.122204102255443e-05,8.645921868360634e-07
	0.000000000000000e+00,0.000000000000000e+00
	-1.120550937965951e-05,8.633185201514689e-07
	0.000000000000000e+00,0.000000000000000e+00
	9.999765648989605e-01,-4.858516756892120e-04
	1.002727831360104e+00,-9.933571294781107e-02
	1.000000000000000e+00,0.000000000000000e+00
	-2.343510103947066e-06,-4.858516756892121e-05
	9.928085509884501e-01,-9.812867299381270e-02
	9.928267791794987e-01,-9.810462346352314e-02
	2.682031154899178e-05,2.453970622126322e-04
	-2.681928496589547e-05,-2.453971636528149e-04
	9.928536102009611e-01,-9.785868674299289e-02
	0.000000000000000e+00,0.000000000000000e+00
	1.006815135802817e+00,-9.963407003197404e-02
	0.000000000000000e+00,0.000000000000000e+00
	1.006813502399154e+00,-9.965048984622626e-02
	3.645637682690658e-05,4.809901227185285e-05
	5.060792018998824e-06,5.120213529793619e-05
	1.002727831360635e+00,-9.933571294091639e-02
	1.002727831360635e+00,-9.933571294091639e-02
	1.002727831360635e+00,-9.933571294091639e-02
	1.006813502399154e+00,-9.965048984622626e-02
	1.006533364639493e+00,-9.962890688073162e-02
	1.006532951349324e+00,-9.962887503915677e-02
	1.002727831360635e+00,-9.933571294091639e-02
	1.002727831360635e+00,-9.933571294091639e-02
	0.000000000000000e+00,0.000000000000000e+00
	0.000000000000000e+00,0.000000000000000e+00

 6	5.869316406250000e+02,0.000000000000000e+00
	-1.165824437176185e-10,-9.082219235537507e-10
	2.343833868884149e-05,-2.194747123485975e-06
	2.016167016799237e-12,-2.393889913512258e-13
	-3.129611937568334e-08,3.714746252876547e-09
	2.343833869737806e-05,-2.194747124371897e-06
	9.965971606525494e-01,-5.880644698186894e-02
	9.896450496247580e-01,-1.177351510067438e-01
	9.896813505070033e-01,-1.172043710421790e-01
	-1.003813463753468e-12,1.192946556173413e-13
	1.003813463753454e-12,-1.192946556173397e-13
	4.270091920754693e-15,-3.998479621149668e-16
	-4.270091643513277e-15,3.998479361543243e-16
	1.171053100994636e-05,-1.096564675072290e-06
	-1.172780767889989e-05,1.098182448413415e-06
	-1.172780671188348e-05,1.098182333625953e-06
	0.000000000000000e+00,0.000000000000000e+00
	-1.171053000613290e-05,1.096564555777634e-06
	0.000000000000000e+00,0.000000000000000e+00
	9.999663085213124e-01,-5.822420493254351e-04
	9.995413129161987e-01,-1.189144725334611e-01
	1.000000000000000e+00,0.000000000000000e+00
	-3.369147868761968e-06,-5.822420493254351e-05
	9.896632000658807e-01,-1.174697610244614e-01
	9.896824818532384e-01,-1.174410048483842e-01
	3.741894058395534e-05,2.934981986532220e-04
	-3.741791725214716e-05,-2.934983200872515e-04
	9.897199140743660e-01,-1.171468587478013e-01
	0.000000000000000e+00,0.000000000000000e+00
	1.003813463739189e+00,-1.192946556156444e-01
	0.000000000000000e+00,0.000000000000000e+00
	1.003811120872456e+00,-1.193142938966503e-01
	3.856356736266104e-05,5.751229437766491e-05
	7.267447986977697e-06,6.122704063054145e-05
	9.995413129170084e-01,-1.189144725248176e-01
	9.995413129170084e-01,-1.189144725248176e-01
	9.995413129170084e-01,-1.189144725248176e-01
	1.003811120872456e+00,-1.193142938966503e-01
	1.003518357597207e+00,-1.192868797797735e-01
	1.003517925680484e+00,-1.192868393354400e-01
	9.995413129170084e-01,-1.189144725248176e-01
	9.995413129170084e-01,-1.189144725248176e-01
	0.000000000000000e+00,0.000000000000000e+00
	0.000000000000000e+00,0.000000000000000e+00

 7	6.845869140625000e+02,0.000000000000000e+00
	-1.550979897224195e-10,-1.055613877352916e-09
	2.462413700277805e-05,-2.727217084869289e-06
	2.009531362596271e-12,-2.786606078538282e-13
	-3.117904033836863e-08,4.322194589659610e-09
	2.462413701173942e-05,-2.727217085970520e-06
	9.953758253620717e-01,-6.851006797841540e-02
	9.859314770230542e-01,-1.369872980273152e-01
	9.859902469353703e-01,-1.363703587199644e-01
	-1.000279525927264e-12,1.388334582019601e-13
	1.000279525927250e-12,-1.388334582019582e-13
	4.486125482996029e-15,-4.968555064780745e-16
	-4.486125191728287e-15,4.968554742190655e-16
	1.230299313412665e-05,-1.362603410899350e-06
	-1.232114386865270e-05,1.364613673971566e-06
	-1.232114290594024e-05,1.364613540506216e-06
	0.000000000000000e+00,0.000000000000000e+00
	-1.230299213384712e-05,1.362603272065891e-06
	0.000000000000000e+00,0.000000000000000e+00
	9.999542160926937e-01,-6.783175047367861e-04
	9.957905211274510e-01,-1.383594607733170e-01
	1.000000000000000e+00,0.000000000000000e+00
	-4.578390730619608e-06,-6.783175047367861e-05
	9.859608619792122e-01,-1.366788283736398e-01
	9.859813828808778e-01,-1.366454159372326e-01
	4.988948445783237e-05,3.411255920403589e-04
	-4.988846495296295e-05,-3.411257333317402e-04
	9.860312887288986e-01,-1.363035339143031e-01
	0.000000000000000e+00,0.000000000000000e+00
	1.000279525913036e+00,-1.388334581999853e-01
	0.000000000000000e+00,0.000000000000000e+00
	1.000276348279868e+00,-1.388562832278240e-01
	4.104179352826767e-05,6.682480566130633e-05
	9.862753189899040e-06,7.114700025096594e-05
	9.957905211286238e-01,-1.383594607627251e-01
	9.957905211286238e-01,-1.383594607627251e-01
	9.957905211286238e-01,-1.383594607627251e-01
	1.000276348279868e+00,-1.388562832278240e-01
	9.999687734515152e-01,-1.388222181425515e-01
	9.999683196831523e-01,-1.388221678859747e-01
	9.957905211286238e-01,-1.383594607627251e-01
	9.957905211286238e-01,-1.383594607627251e-01
	0.000000000000000e+00,0.000000000000000e+00
	0.000000000000000e+00,0.000000000000000e+00

 8	7.822421875000000e+02,0.000000000000000e+00
	-1.993168954990224e-10,-1.201311487111574e-09
	2.598081038650973e-05,-3.335609815733644e-06
	2.001905451492033e-12,-3.176777382043372e-13
	-3.104456311993050e-08,4.924802463915402e-09
	2.598081039594895e-05,-3.335609817076699e-06
	9.939703127956816e-01,-7.817672375437724e-02
	9.816660651442289e-01,-1.560858869095442e-01
	9.817506328243700e-01,-1.553837689684818e-01
	-9.962194703191506e-13,1.582310311725819e-13
	9.962194703191371e-13,-1.582310311725797e-13
	4.733289760798715e-15,-6.076949699397059e-16
	-4.733289453483548e-15,6.076949304843165e-16
	1.298082981621108e-05,-1.666575549692047e-06
	-1.299998057028781e-05,1.669034266041868e-06
	-1.299997961252375e-05,1.669034114094582e-06
	0.000000000000000e+00,0.000000000000000e+00
	-1.298082881999161e-05,1.666575391461016e-06
	0.000000000000000e+00,0.000000000000000e+00
	9.999403001266899e-01,-7.740269678651212e-04
	9.914823593068230e-01,-1.576493516377086e-01
	1.000000000000000e+00,0.000000000000000e+00
	-5.969987331017057e-06,-7.740269678651213e-05
	9.817083489842995e-01,-1.557348279390130e-01
	9.817302917198398e-01,-1.556968176141471e-01
	6.420658156336412e-05,3.882039300797391e-04
	-6.420556645408970e-05,-3.882040910702933e-04
	9.817945182828350e-01,-1.553077483951716e-01
	0.000000000000000e+00,0.000000000000000e+00
	9.962194703049798e-01,-1.582310311703311e-01
	0.000000000000000e+00,0.000000000000000e+00
	9.962153343008424e-01,-1.582570061825663e-01
	4.388545846495800e-05,7.602057331024182e-05
	1.284089534502750e-05,8.094537577415723e-05
	9.914823593084624e-01,-1.576493516249391e-01
	9.914823593084624e-01,-1.576493516249391e-01
	9.914823593084624e-01,-1.576493516249391e-01
	9.962153343008424e-01,-1.582570061825663e-01
	9.958908135554371e-01,-1.582153417938240e-01
	9.958903347865853e-01,-1.582152803259153e-01
	9.914823593084624e-01,-1.576493516249391e-01
	9.914823593084624e-01,-1.576493516249391e-01
	0.000000000000000e+00,0.000000000000000e+00
	0.000000000000000e+00,0.000000000000000e+00

 9	8.798974609375000e+02,0.000000000000000e+00
	-2.491497386880205e-10,-1.345087226519279e-09
	2.750363855231336e-05,-4.029930183234269e-06
	1.993302202009517e-12,-3.564042435038304e-13
	-3.089293402778095e-08,5.521917425103448e-09
	2.750363856231723e-05,-4.029930184855483e-06
	9.923820729062860e-01,-8.780131663430957e-02
	9.768566286205050e-01,-1.750102196227629e-01
	9.769702712802603e-01,-1.742240355145379e-01
	-9.916403280559501e-13,1.774682965673588e-13
	9.916403280559364e-13,-1.774682965673564e-13
	5.010724792943536e-15,-7.341890799122759e-16
	-5.010724467615582e-15,7.341890322440746e-16
	1.374168265204541e-05,-2.013479837679284e-06
	-1.376195590027315e-05,2.016450345555636e-06
	-1.376195494805541e-05,2.016450175341654e-06
